
**** 03/07/18 08:52:09 ******* PSpice Lite (March 2016) ******* ID# 10813 ****

 *******************************************************


 ****     CIRCUIT DESCRIPTION


******************************************************************************



* Filename: mar7p1.cir
* Author: larsonma@msoe.edu <Mitchell Larson>
* Date: 7 march 2018
* Provides: 
* - solution to a typical EE2050 problem
* - hand solution gave VA = 2.0199 VB = 1.7249
*******************************************************

*** Describe the circuit
V1 1 0 DC 16
R1 1 A 66
R2 A 0 10
R3 A B 30
R4 B 0 67
R5 B 2 99
V2 2 0 DC 3.3

*** command spice to do operating point
.OP
.END

**** 03/07/18 08:52:09 ******* PSpice Lite (March 2016) ******* ID# 10813 ****

 *******************************************************


 ****     SMALL SIGNAL BIAS SOLUTION       TEMPERATURE =   27.000 DEG C


******************************************************************************



 NODE   VOLTAGE     NODE   VOLTAGE     NODE   VOLTAGE     NODE   VOLTAGE


(    1)   16.0000  (    2)    3.3000  (    A)    2.0199  (    B)    1.7249  




    VOLTAGE SOURCE CURRENTS
    NAME         CURRENT

    V1          -2.118E-01
    V2          -1.591E-02

    TOTAL POWER DISSIPATION   3.44E+00  WATTS


**** 03/07/18 08:52:09 ******* PSpice Lite (March 2016) ******* ID# 10813 ****

 *******************************************************


 ****     OPERATING POINT INFORMATION      TEMPERATURE =   27.000 DEG C


******************************************************************************





          JOB CONCLUDED

**** 03/07/18 08:52:09 ******* PSpice Lite (March 2016) ******* ID# 10813 ****

 *******************************************************


 ****     JOB STATISTICS SUMMARY


******************************************************************************



  Total job time (using Solver 1)   =         .02
